
T0FD0 000:085 SEGGER J-Link V6.16f Log File (0003ms, 0037ms total)
T0FD0 000:085 DLL Compiled: Jul  3 2017 15:57:26 (0003ms, 0037ms total)
T0FD0 000:085 Logging started @ 2017-07-27 19:20 (0003ms, 0037ms total)
T0FD0 000:088 JLINK_SetWarnOutHandler(...) (0000ms, 0037ms total)
T0FD0 000:088 JLINK_OpenEx(...)
Firmware: J-Link V9 compiled Jun 16 2017 16:15:10
Hardware: V9.40
S/N: 59402530
Feature(s): RDI, GDB, FlashDL, FlashBP, JFlashWEBSRV Webserver running on local port 19080 (0026ms, 0063ms total)
T0FD0 000:088   returns O.K. (0026ms, 0063ms total)
T0FD0 000:114 JLINK_SetErrorOutHandler(...) (0000ms, 0063ms total)
T0FD0 000:114 JLINK_ExecCommand("ProjectFile = "D:\study\stm32Ñ§Ï°³ÌÐò±àÐ´\´®¿Ú\USER\JLinkSettings.ini"", ...). C:\Program Files (x86)\SEGGER\JLink_V616f\JLinkDevices.xml evaluated successfully.  returns 0x00 (0094ms, 0157ms total)
T0FD0 000:210 JLINK_ExecCommand("Device = STM32F103ZE", ...). Device "STM32F103ZE" selected.  returns 0x00 (0008ms, 0165ms total)
T0FD0 000:218 JLINK_ExecCommand("DisableConnectionTimeout", ...).   returns 0x01 (0000ms, 0165ms total)
T0FD0 000:218 JLINK_GetHardwareVersion()  returns 0x16F30 (0000ms, 0165ms total)
T0FD0 000:218 JLINK_GetDLLVersion()  returns 61606 (0000ms, 0165ms total)
T0FD0 000:218 JLINK_GetFirmwareString(...) (0000ms, 0165ms total)
T0FD0 000:230 JLINK_GetDLLVersion()  returns 61606 (0000ms, 0165ms total)
T0FD0 000:230 JLINK_GetCompileDateTime() (0000ms, 0165ms total)
T0FD0 000:234 JLINK_GetFirmwareString(...) (0000ms, 0165ms total)
T0FD0 000:236 JLINK_GetHardwareVersion()  returns 0x16F30 (0000ms, 0165ms total)
T0FD0 000:250 JLINK_TIF_Select(JLINKARM_TIF_JTAG)  returns 0x00 (0006ms, 0171ms total)
T0FD0 000:256 JLINK_SetSpeed(20000) (0001ms, 0172ms total)
T0FD0 000:257 JLINK_GetIdData(...) >0x2F8 JTAG>TotalIRLen = 9, IRPrint = 0x0011 >0x30 JTAG> >0x50 JTAG>JTAG chain detection found 2 devices: #0 Id: 0x3BA00477, IRLen: 04, CoreSight JTAG-DP #1 Id: 0x06414041, IRLen: 05, STM32 Boundary Scan >0x40 JTAG> >0x40 JTAG> >0x40 JTAG> >0x30 JTAG> >0x40 JTAG> >0x40 JTAG> >0x40 JTAG> >0x40 JTAG> >0x40 JTAG> >0x40 JTAG> >0x40 JTAG> >0x40 JTAG> >0x40 JTAG> >0x40 JTAG> >0x40 JTAG> >0x40 JTAG> >0x40 JTAG> >0x40 JTAG> >0x40 JTAG> >0x40 JTAG> >0x40 JTAG> >0x40 JTAG>
 >0x40 JTAG> >0x40 JTAG> >0x40 JTAG> >0x40 JTAG> >0x40 JTAG> >0x2F8 JTAG>TotalIRLen = 9, IRPrint = 0x0011 >0x30 JTAG> >0x50 JTAG>JTAG chain detection found 2 devices: #0 Id: 0x3BA00477, IRLen: 04, CoreSight JTAG-DP #1 Id: 0x06414041, IRLen: 05, STM32 Boundary ScanScanning APs, stopping at first AHB-AP found. >0x80 JTAG> >0x50 JTAG> >0x50 JTAG>AP[0] IDR: 0x14770011 (AHB-AP) >0x40 JTAG> >0x50 JTAG> >0x50 JTAG>AHB-AP ROM: 0xE00FF000 (Base addr. of first ROM table) >0x80 JTAG> >0x40 JTAG> >0x30 JTAG>
 >0x40 JTAG> >0x40 JTAG> >0x30 JTAG> >0x40 JTAG> >0x50 JTAG>CPUID reg.: 0x411FC231. Implementer code: 0x41 (ARM)Found Cortex-M3 r1p1, Little endian. -- CPU_ReadMem(4 bytes @ 0xE000EDF0) -- CPU_WriteMem(4 bytes @ 0xE000EDF0) -- CPU_ReadMem(4 bytes @ 0xE0002000)FPUnit: 6 code (BP) slots and 2 literal slots -- CPU_ReadMem(4 bytes @ 0xE000EDFC) -- CPU_WriteMem(4 bytes @ 0xE000EDFC) -- CPU_ReadMem(4 bytes @ 0xE0001000) -- CPU_WriteMem(4 bytes @ 0xE0001000) -- CPU_ReadMem(4 bytes @ 0xE000ED88)
 -- CPU_WriteMem(4 bytes @ 0xE000ED88) -- CPU_ReadMem(4 bytes @ 0xE000ED88) -- CPU_WriteMem(4 bytes @ 0xE000ED88)CoreSight components:ROMTbl[0] @ E00FF000 -- CPU_ReadMem(16 bytes @ 0xE00FF000) -- CPU_ReadMem(16 bytes @ 0xE000EFF0) -- CPU_ReadMem(16 bytes @ 0xE000EFE0)ROMTbl[0][0]: E000E000, CID: B105E00D, PID: 001BB000 SCS -- CPU_ReadMem(16 bytes @ 0xE0001FF0) -- CPU_ReadMem(16 bytes @ 0xE0001FE0)ROMTbl[0][1]: E0001000, CID: B105E00D, PID: 001BB002 DWT -- CPU_ReadMem(16 bytes @ 0xE0002FF0)
 -- CPU_ReadMem(16 bytes @ 0xE0002FE0)ROMTbl[0][2]: E0002000, CID: B105E00D, PID: 000BB003 FPB -- CPU_ReadMem(16 bytes @ 0xE0000FF0) -- CPU_ReadMem(16 bytes @ 0xE0000FE0)ROMTbl[0][3]: E0000000, CID: B105E00D, PID: 001BB001 ITM -- CPU_ReadMem(16 bytes @ 0xE00FF010) -- CPU_ReadMem(16 bytes @ 0xE0040FF0) -- CPU_ReadMem(16 bytes @ 0xE0040FE0)ROMTbl[0][4]: E0040000, CID: B105900D, PID: 001BB923 TPIU-Lite -- CPU_ReadMem(16 bytes @ 0xE0041FF0) -- CPU_ReadMem(16 bytes @ 0xE0041FE0)
ROMTbl[0][5]: E0041000, CID: B105900D, PID: 101BB924 ETM-M3 ScanLen=9 NumDevices=2 aId[0]=0x3BA00477 aIrRead[0]=0 aScanLen[0]=0 aScanRead[0]=0 (0147ms, 0319ms total)
T0FD0 000:404 JLINK_JTAG_GetDeviceID(DeviceIndex = 0)  returns 0x3BA00477 (0000ms, 0319ms total)
T0FD0 000:404 JLINK_JTAG_GetDeviceInfo(DeviceIndex = 0)  returns 0x00 (0000ms, 0319ms total)
T0FD0 000:404 JLINK_JTAG_GetDeviceID(DeviceIndex = 1)  returns 0x6414041 (0000ms, 0319ms total)
T0FD0 000:404 JLINK_JTAG_GetDeviceInfo(DeviceIndex = 1)  returns 0x00 (0000ms, 0319ms total)
T0FD0 000:404 JLINK_GetDLLVersion()  returns 61606 (0000ms, 0319ms total)
T0FD0 000:404 JLINK_CORE_GetFound()  returns 0x30000FF (0000ms, 0319ms total)
T0FD0 000:404 JLINK_GetDebugInfo(0x100 = JLINKARM_ROM_TABLE_ADDR_INDEX) -- Value=0xE00FF000  returns 0x00 (0000ms, 0319ms total)
T0FD0 000:406 JLINK_ReadMem (0xE00FF000, 0x0020 Bytes, ...) -- CPU_ReadMem(32 bytes @ 0xE00FF000) - Data: 03 F0 F0 FF 03 20 F0 FF 03 30 F0 FF 03 10 F0 FF ...  returns 0x00 (0001ms, 0320ms total)
T0FD0 000:407 JLINK_ReadMem (0xE000EFF0, 0x0010 Bytes, ...) -- CPU_ReadMem(16 bytes @ 0xE000EFF0) - Data: 0D 00 00 00 E0 00 00 00 05 00 00 00 B1 00 00 00  returns 0x00 (0001ms, 0321ms total)
T0FD0 000:408 JLINK_ReadMem (0xE000EFD0, 0x0020 Bytes, ...) -- CPU_ReadMem(32 bytes @ 0xE000EFD0) - Data: 04 00 00 00 00 00 00 00 00 00 00 00 00 00 00 00 ...  returns 0x00 (0001ms, 0322ms total)
T0FD0 000:409 JLINK_ReadMem (0xE0001FF0, 0x0010 Bytes, ...) -- CPU_ReadMem(16 bytes @ 0xE0001FF0) - Data: 0D 00 00 00 E0 00 00 00 05 00 00 00 B1 00 00 00  returns 0x00 (0001ms, 0323ms total)
T0FD0 000:410 JLINK_ReadMem (0xE0001FD0, 0x0020 Bytes, ...) -- CPU_ReadMem(32 bytes @ 0xE0001FD0) - Data: 04 00 00 00 00 00 00 00 00 00 00 00 00 00 00 00 ...  returns 0x00 (0001ms, 0324ms total)
T0FD0 000:411 JLINK_ReadMem (0xE0002FF0, 0x0010 Bytes, ...) -- CPU_ReadMem(16 bytes @ 0xE0002FF0) - Data: 0D 00 00 00 E0 00 00 00 05 00 00 00 B1 00 00 00  returns 0x00 (0001ms, 0325ms total)
T0FD0 000:412 JLINK_ReadMem (0xE0002FD0, 0x0020 Bytes, ...) -- CPU_ReadMem(32 bytes @ 0xE0002FD0) - Data: 04 00 00 00 00 00 00 00 00 00 00 00 00 00 00 00 ...  returns 0x00 (0001ms, 0326ms total)
T0FD0 000:413 JLINK_ReadMem (0xE0000FF0, 0x0010 Bytes, ...) -- CPU_ReadMem(16 bytes @ 0xE0000FF0) - Data: 0D 00 00 00 E0 00 00 00 05 00 00 00 B1 00 00 00  returns 0x00 (0001ms, 0327ms total)
T0FD0 000:414 JLINK_ReadMem (0xE0000FD0, 0x0020 Bytes, ...) -- CPU_ReadMem(32 bytes @ 0xE0000FD0) - Data: 04 00 00 00 00 00 00 00 00 00 00 00 00 00 00 00 ...  returns 0x00 (0001ms, 0328ms total)
T0FD0 000:415 JLINK_ReadMem (0xE0040FF0, 0x0010 Bytes, ...) -- CPU_ReadMem(16 bytes @ 0xE0040FF0) - Data: 0D 00 00 00 90 00 00 00 05 00 00 00 B1 00 00 00  returns 0x00 (0001ms, 0329ms total)
T0FD0 000:416 JLINK_ReadMem (0xE0040FD0, 0x0020 Bytes, ...) -- CPU_ReadMem(32 bytes @ 0xE0040FD0) - Data: 04 00 00 00 00 00 00 00 00 00 00 00 00 00 00 00 ...  returns 0x00 (0001ms, 0330ms total)
T0FD0 000:417 JLINK_ReadMem (0xE0041FF0, 0x0010 Bytes, ...) -- CPU_ReadMem(16 bytes @ 0xE0041FF0) - Data: 0D 00 00 00 90 00 00 00 05 00 00 00 B1 00 00 00  returns 0x00 (0001ms, 0331ms total)
T0FD0 000:418 JLINK_ReadMem (0xE0041FD0, 0x0020 Bytes, ...) -- CPU_ReadMem(32 bytes @ 0xE0041FD0) - Data: 04 00 00 00 00 00 00 00 00 00 00 00 00 00 00 00 ...  returns 0x00 (0001ms, 0332ms total)
T0FD0 000:419 JLINK_ReadMemU32(0xE000ED00, 0x0001 Items, ...) -- CPU_ReadMem(4 bytes @ 0xE000ED00) - Data: 31 C2 1F 41  returns 0x01 (0001ms, 0333ms total)
T0FD0 000:420 JLINK_SetResetType(JLINKARM_CM3_RESET_TYPE_NORMAL)  returns JLINKARM_CM3_RESET_TYPE_NORMAL (0000ms, 0333ms total)
T0FD0 000:420 JLINK_Reset() -- CPU is running -- CPU_WriteMem(4 bytes @ 0xE000EDF0) -- CPU is running -- CPU_WriteMem(4 bytes @ 0xE000EDFC)Reset: Halt core after reset via DEMCR.VC_CORERESET.Reset: Reset device via AIRCR.SYSRESETREQ. -- CPU is running -- CPU_WriteMem(4 bytes @ 0xE000ED0C) -- CPU_ReadMem(4 bytes @ 0xE000EDF0) -- CPU_ReadMem(4 bytes @ 0xE000EDF0) -- CPU is running -- CPU_WriteMem(4 bytes @ 0xE000EDF0) -- CPU is running -- CPU_WriteMem(4 bytes @ 0xE000EDFC)
 -- CPU_ReadMem(4 bytes @ 0xE000EDF0) -- CPU_WriteMem(4 bytes @ 0xE000EDFC) -- CPU_WriteMem(4 bytes @ 0xE0001028) -- CPU_WriteMem(4 bytes @ 0xE0001038) -- CPU_WriteMem(4 bytes @ 0xE0001048) -- CPU_WriteMem(4 bytes @ 0xE0001058) -- CPU_WriteMem(4 bytes @ 0xE0002000) -- CPU_ReadMem(4 bytes @ 0xE000EDFC) -- CPU_ReadMem(4 bytes @ 0xE0001000) (0079ms, 0412ms total)
T0FD0 000:499 JLINK_Halt()  returns 0x00 (0000ms, 0412ms total)
T0FD0 000:499 JLINK_IsHalted()  returns TRUE (0000ms, 0412ms total)
T0FD0 000:499 JLINK_ReadMemU32(0xE000EDF0, 0x0001 Items, ...) -- CPU_ReadMem(4 bytes @ 0xE000EDF0) - Data: 03 00 03 00  returns 0x01 (0001ms, 0413ms total)
T0FD0 000:500 JLINK_WriteU32(0xE000EDF0, 0xA05F0003) -- CPU_WriteMem(4 bytes @ 0xE000EDF0)  returns 0x00 (0001ms, 0414ms total)
T0FD0 000:501 JLINK_WriteU32(0xE000EDFC, 0x01000000) -- CPU_WriteMem(4 bytes @ 0xE000EDFC)  returns 0x00 (0001ms, 0415ms total)
T0FD0 000:517 JLINK_GetHWStatus(...)  returns 0x00 (0001ms, 0416ms total)
T0FD0 000:528 JLINK_GetNumBPUnits(Type = 0xFFFFFF00)  returns 0x06 (0000ms, 0416ms total)
T0FD0 000:528 JLINK_GetNumBPUnits(Type = 0xF0)  returns 0x2000 (0000ms, 0416ms total)
T0FD0 000:528 JLINK_GetNumWPUnits()  returns 0x04 (0000ms, 0416ms total)
T0FD0 000:543 JLINK_GetSpeed()  returns 0x3A98 (0000ms, 0416ms total)
T0FD0 000:547 JLINK_ReadMemU32(0xE000E004, 0x0001 Items, ...) -- CPU_ReadMem(4 bytes @ 0xE000E004) - Data: 01 00 00 00  returns 0x01 (0001ms, 0417ms total)
T0FD0 000:548 JLINK_ReadMemU32(0xE000E004, 0x0001 Items, ...) -- CPU_ReadMem(4 bytes @ 0xE000E004) - Data: 01 00 00 00  returns 0x01 (0001ms, 0418ms total)
T0FD0 000:549 JLINK_WriteMem(0xE0001000, 0x001C Bytes, ...) - Data: 01 00 00 00 00 00 00 00 00 00 00 00 00 00 00 00 ... -- CPU_WriteMem(28 bytes @ 0xE0001000)  returns 0x1C (0001ms, 0419ms total)
T0FD0 000:550 JLINK_ReadMem (0xE0001000, 0x001C Bytes, ...) -- CPU_ReadMem(28 bytes @ 0xE0001000) - Data: 01 00 00 40 00 00 00 00 00 00 00 00 00 00 00 00 ...  returns 0x00 (0001ms, 0420ms total)
T0FD0 000:551 JLINK_Halt()  returns 0x00 (0000ms, 0420ms total)
T0FD0 000:551 JLINK_IsHalted()  returns TRUE (0000ms, 0420ms total)
T0FD0 000:554 JLINK_WriteMem(0x20000000, 0x0164 Bytes, ...) - Data: 00 BE 0A E0 0D 78 2D 06 68 40 08 24 40 00 00 D3 ... -- CPU_WriteMem(356 bytes @ 0x20000000)  returns 0x164 (0002ms, 0422ms total)
T0FD0 000:556 JLINK_WriteReg(R0, 0x08000000)  returns 0x00 (0000ms, 0422ms total)
T0FD0 000:556 JLINK_WriteReg(R1, 0x00B71B00)  returns 0x00 (0000ms, 0422ms total)
T0FD0 000:556 JLINK_WriteReg(R2, 0x00000001)  returns 0x00 (0000ms, 0422ms total)
T0FD0 000:556 JLINK_WriteReg(R3, 0x00000000)  returns 0x00 (0000ms, 0422ms total)
T0FD0 000:556 JLINK_WriteReg(R4, 0x00000000)  returns 0x00 (0000ms, 0422ms total)
T0FD0 000:556 JLINK_WriteReg(R5, 0x00000000)  returns 0x00 (0000ms, 0422ms total)
T0FD0 000:556 JLINK_WriteReg(R6, 0x00000000)  returns 0x00 (0000ms, 0422ms total)
T0FD0 000:556 JLINK_WriteReg(R7, 0x00000000)  returns 0x00 (0000ms, 0422ms total)
T0FD0 000:556 JLINK_WriteReg(R8, 0x00000000)  returns 0x00 (0000ms, 0422ms total)
T0FD0 000:556 JLINK_WriteReg(R9, 0x20000160)  returns 0x00 (0000ms, 0422ms total)
T0FD0 000:556 JLINK_WriteReg(R10, 0x00000000)  returns 0x00 (0000ms, 0422ms total)
T0FD0 000:556 JLINK_WriteReg(R11, 0x00000000)  returns 0x00 (0000ms, 0422ms total)
T0FD0 000:556 JLINK_WriteReg(R12, 0x00000000)  returns 0x00 (0000ms, 0422ms total)
T0FD0 000:556 JLINK_WriteReg(R13 (SP), 0x20001000)  returns 0x00 (0000ms, 0422ms total)
T0FD0 000:556 JLINK_WriteReg(R14, 0x20000001)  returns 0x00 (0000ms, 0422ms total)
T0FD0 000:556 JLINK_WriteReg(R15 (PC), 0x20000038)  returns 0x00 (0000ms, 0422ms total)
T0FD0 000:556 JLINK_WriteReg(XPSR, 0x01000000)  returns 0x00 (0000ms, 0422ms total)
T0FD0 000:556 JLINK_WriteReg(MSP, 0x20001000)  returns 0x00 (0000ms, 0422ms total)
T0FD0 000:556 JLINK_WriteReg(PSP, 0x20001000)  returns 0x00 (0000ms, 0422ms total)
T0FD0 000:556 JLINK_WriteReg(CFBP, 0x00000000)  returns 0x00 (0000ms, 0422ms total)
T0FD0 000:556 JLINK_SetBPEx(Addr = 0x20000000, Type = 0xFFFFFFF2) -- CPU_ReadMem(2 bytes @ 0x20000000)  returns 0x00000001 (0003ms, 0425ms total)
T0FD0 000:559 JLINK_Go() -- CPU_WriteMem(2 bytes @ 0x20000000) -- CPU_ReadMem(4 bytes @ 0xE0001000) -- CPU_WriteMem(4 bytes @ 0xE0002008) -- CPU_WriteMem(4 bytes @ 0xE000200C) -- CPU_WriteMem(4 bytes @ 0xE0002010) -- CPU_WriteMem(4 bytes @ 0xE0002014) -- CPU_WriteMem(4 bytes @ 0xE0002018) -- CPU_WriteMem(4 bytes @ 0xE000201C) -- CPU_WriteMem(4 bytes @ 0xE0001004) (0006ms, 0431ms total)
T0FD0 000:565 JLINK_IsHalted() -- CPU_ReadMem(2 bytes @ 0x20000000)  returns TRUE (0003ms, 0434ms total)
T0FD0 000:568 JLINK_ReadReg(R15 (PC))  returns 0x20000000 (0000ms, 0431ms total)
T0FD0 000:568 JLINK_ClrBPEx(BPHandle = 0x00000001)  returns 0x00 (0000ms, 0431ms total)
T0FD0 000:568 JLINK_ReadReg(R0)  returns 0x00000000 (0000ms, 0431ms total)
T0FD0 000:569 JLINK_WriteReg(R0, 0x08000000)  returns 0x00 (0000ms, 0431ms total)
T0FD0 000:569 JLINK_WriteReg(R1, 0x00000800)  returns 0x00 (0000ms, 0431ms total)
T0FD0 000:569 JLINK_WriteReg(R2, 0x000000FF)  returns 0x00 (0000ms, 0431ms total)
T0FD0 000:569 JLINK_WriteReg(R3, 0x00000000)  returns 0x00 (0000ms, 0431ms total)
T0FD0 000:569 JLINK_WriteReg(R4, 0x00000000)  returns 0x00 (0000ms, 0431ms total)
T0FD0 000:569 JLINK_WriteReg(R5, 0x00000000)  returns 0x00 (0000ms, 0431ms total)
T0FD0 000:569 JLINK_WriteReg(R6, 0x00000000)  returns 0x00 (0000ms, 0431ms total)
T0FD0 000:569 JLINK_WriteReg(R7, 0x00000000)  returns 0x00 (0000ms, 0431ms total)
T0FD0 000:569 JLINK_WriteReg(R8, 0x00000000)  returns 0x00 (0000ms, 0431ms total)
T0FD0 000:569 JLINK_WriteReg(R9, 0x20000160)  returns 0x00 (0000ms, 0431ms total)
T0FD0 000:569 JLINK_WriteReg(R10, 0x00000000)  returns 0x00 (0000ms, 0431ms total)
T0FD0 000:569 JLINK_WriteReg(R11, 0x00000000)  returns 0x00 (0000ms, 0431ms total)
T0FD0 000:569 JLINK_WriteReg(R12, 0x00000000)  returns 0x00 (0000ms, 0431ms total)
T0FD0 000:569 JLINK_WriteReg(R13 (SP), 0x20001000)  returns 0x00 (0000ms, 0431ms total)
T0FD0 000:569 JLINK_WriteReg(R14, 0x20000001)  returns 0x00 (0000ms, 0431ms total)
T0FD0 000:569 JLINK_WriteReg(R15 (PC), 0x20000020)  returns 0x00 (0000ms, 0431ms total)
T0FD0 000:569 JLINK_WriteReg(XPSR, 0x01000000)  returns 0x00 (0000ms, 0431ms total)
T0FD0 000:569 JLINK_WriteReg(MSP, 0x20001000)  returns 0x00 (0000ms, 0431ms total)
T0FD0 000:569 JLINK_WriteReg(PSP, 0x20001000)  returns 0x00 (0000ms, 0431ms total)
T0FD0 000:569 JLINK_WriteReg(CFBP, 0x00000000)  returns 0x00 (0000ms, 0431ms total)
T0FD0 000:569 JLINK_SetBPEx(Addr = 0x20000000, Type = 0xFFFFFFF2)  returns 0x00000002 (0000ms, 0431ms total)
T0FD0 000:569 JLINK_Go() -- CPU_ReadMem(4 bytes @ 0xE0001000) (0002ms, 0433ms total)
T0FD0 000:571 JLINK_IsHalted() -- CPU_ReadMem(2 bytes @ 0x20000000)  returns TRUE (0003ms, 0436ms total)
T0FD0 000:574 JLINK_ReadReg(R15 (PC))  returns 0x20000000 (0000ms, 0433ms total)
T0FD0 000:574 JLINK_ClrBPEx(BPHandle = 0x00000002)  returns 0x00 (0000ms, 0433ms total)
T0FD0 000:574 JLINK_ReadReg(R0)  returns 0x00000001 (0000ms, 0433ms total)
T0FD0 000:574 JLINK_WriteReg(R0, 0x08000000)  returns 0x00 (0000ms, 0433ms total)
T0FD0 000:574 JLINK_WriteReg(R1, 0x00000800)  returns 0x00 (0000ms, 0433ms total)
T0FD0 000:574 JLINK_WriteReg(R2, 0x000000FF)  returns 0x00 (0000ms, 0433ms total)
T0FD0 000:574 JLINK_WriteReg(R3, 0x00000000)  returns 0x00 (0000ms, 0433ms total)
T0FD0 000:574 JLINK_WriteReg(R4, 0x00000000)  returns 0x00 (0000ms, 0433ms total)
T0FD0 000:574 JLINK_WriteReg(R5, 0x00000000)  returns 0x00 (0000ms, 0433ms total)
T0FD0 000:574 JLINK_WriteReg(R6, 0x00000000)  returns 0x00 (0000ms, 0433ms total)
T0FD0 000:574 JLINK_WriteReg(R7, 0x00000000)  returns 0x00 (0000ms, 0433ms total)
T0FD0 000:574 JLINK_WriteReg(R8, 0x00000000)  returns 0x00 (0000ms, 0433ms total)
T0FD0 000:574 JLINK_WriteReg(R9, 0x20000160)  returns 0x00 (0000ms, 0433ms total)
T0FD0 000:574 JLINK_WriteReg(R10, 0x00000000)  returns 0x00 (0000ms, 0433ms total)
T0FD0 000:574 JLINK_WriteReg(R11, 0x00000000)  returns 0x00 (0000ms, 0433ms total)
T0FD0 000:574 JLINK_WriteReg(R12, 0x00000000)  returns 0x00 (0001ms, 0434ms total)
T0FD0 000:575 JLINK_WriteReg(R13 (SP), 0x20001000)  returns 0x00 (0000ms, 0434ms total)
T0FD0 000:575 JLINK_WriteReg(R14, 0x20000001)  returns 0x00 (0000ms, 0434ms total)
T0FD0 000:575 JLINK_WriteReg(R15 (PC), 0x200000B6)  returns 0x00 (0000ms, 0434ms total)
T0FD0 000:575 JLINK_WriteReg(XPSR, 0x01000000)  returns 0x00 (0000ms, 0434ms total)
T0FD0 000:575 JLINK_WriteReg(MSP, 0x20001000)  returns 0x00 (0000ms, 0434ms total)
T0FD0 000:575 JLINK_WriteReg(PSP, 0x20001000)  returns 0x00 (0000ms, 0434ms total)
T0FD0 000:575 JLINK_WriteReg(CFBP, 0x00000000)  returns 0x00 (0000ms, 0434ms total)
T0FD0 000:575 JLINK_SetBPEx(Addr = 0x20000000, Type = 0xFFFFFFF2)  returns 0x00000003 (0000ms, 0434ms total)
T0FD0 000:575 JLINK_Go() -- CPU_ReadMem(4 bytes @ 0xE0001000) (0002ms, 0436ms total)
T0FD0 000:577 JLINK_IsHalted()  returns FALSE (0001ms, 0437ms total)
T0FD0 000:654 JLINK_IsHalted() -- CPU_ReadMem(2 bytes @ 0x20000000)  returns TRUE (0002ms, 0438ms total)
T0FD0 000:656 JLINK_ReadReg(R15 (PC))  returns 0x20000000 (0000ms, 0436ms total)
T0FD0 000:656 JLINK_ClrBPEx(BPHandle = 0x00000003)  returns 0x00 (0000ms, 0436ms total)
T0FD0 000:656 JLINK_ReadReg(R0)  returns 0x00000000 (0000ms, 0436ms total)
T0FD0 000:657 JLINK_WriteReg(R0, 0x08000800)  returns 0x00 (0000ms, 0436ms total)
T0FD0 000:657 JLINK_WriteReg(R1, 0x00000800)  returns 0x00 (0000ms, 0436ms total)
T0FD0 000:657 JLINK_WriteReg(R2, 0x000000FF)  returns 0x00 (0000ms, 0436ms total)
T0FD0 000:657 JLINK_WriteReg(R3, 0x00000000)  returns 0x00 (0000ms, 0436ms total)
T0FD0 000:657 JLINK_WriteReg(R4, 0x00000000)  returns 0x00 (0000ms, 0436ms total)
T0FD0 000:657 JLINK_WriteReg(R5, 0x00000000)  returns 0x00 (0000ms, 0436ms total)
T0FD0 000:657 JLINK_WriteReg(R6, 0x00000000)  returns 0x00 (0000ms, 0436ms total)
T0FD0 000:657 JLINK_WriteReg(R7, 0x00000000)  returns 0x00 (0000ms, 0436ms total)
T0FD0 000:657 JLINK_WriteReg(R8, 0x00000000)  returns 0x00 (0000ms, 0436ms total)
T0FD0 000:657 JLINK_WriteReg(R9, 0x20000160)  returns 0x00 (0000ms, 0436ms total)
T0FD0 000:657 JLINK_WriteReg(R10, 0x00000000)  returns 0x00 (0000ms, 0436ms total)
T0FD0 000:657 JLINK_WriteReg(R11, 0x00000000)  returns 0x00 (0000ms, 0436ms total)
T0FD0 000:657 JLINK_WriteReg(R12, 0x00000000)  returns 0x00 (0000ms, 0436ms total)
T0FD0 000:657 JLINK_WriteReg(R13 (SP), 0x20001000)  returns 0x00 (0000ms, 0436ms total)
T0FD0 000:657 JLINK_WriteReg(R14, 0x20000001)  returns 0x00 (0000ms, 0436ms total)
T0FD0 000:657 JLINK_WriteReg(R15 (PC), 0x20000020)  returns 0x00 (0000ms, 0436ms total)
T0FD0 000:657 JLINK_WriteReg(XPSR, 0x01000000)  returns 0x00 (0000ms, 0436ms total)
T0FD0 000:657 JLINK_WriteReg(MSP, 0x20001000)  returns 0x00 (0000ms, 0436ms total)
T0FD0 000:657 JLINK_WriteReg(PSP, 0x20001000)  returns 0x00 (0000ms, 0436ms total)
T0FD0 000:657 JLINK_WriteReg(CFBP, 0x00000000)  returns 0x00 (0000ms, 0436ms total)
T0FD0 000:657 JLINK_SetBPEx(Addr = 0x20000000, Type = 0xFFFFFFF2)  returns 0x00000004 (0000ms, 0436ms total)
T0FD0 000:657 JLINK_Go() -- CPU_ReadMem(4 bytes @ 0xE0001000) (0004ms, 0440ms total)
T0FD0 000:661 JLINK_IsHalted() -- CPU_ReadMem(2 bytes @ 0x20000000)  returns TRUE (0003ms, 0443ms total)
T0FD0 000:664 JLINK_ReadReg(R15 (PC))  returns 0x20000000 (0000ms, 0440ms total)
T0FD0 000:664 JLINK_ClrBPEx(BPHandle = 0x00000004)  returns 0x00 (0000ms, 0440ms total)
T0FD0 000:664 JLINK_ReadReg(R0)  returns 0x00000001 (0000ms, 0440ms total)
T0FD0 000:664 JLINK_WriteReg(R0, 0x08000800)  returns 0x00 (0000ms, 0440ms total)
T0FD0 000:664 JLINK_WriteReg(R1, 0x00000800)  returns 0x00 (0000ms, 0440ms total)
T0FD0 000:664 JLINK_WriteReg(R2, 0x000000FF)  returns 0x00 (0000ms, 0440ms total)
T0FD0 000:664 JLINK_WriteReg(R3, 0x00000000)  returns 0x00 (0000ms, 0440ms total)
T0FD0 000:664 JLINK_WriteReg(R4, 0x00000000)  returns 0x00 (0000ms, 0440ms total)
T0FD0 000:664 JLINK_WriteReg(R5, 0x00000000)  returns 0x00 (0000ms, 0440ms total)
T0FD0 000:664 JLINK_WriteReg(R6, 0x00000000)  returns 0x00 (0000ms, 0440ms total)
T0FD0 000:664 JLINK_WriteReg(R7, 0x00000000)  returns 0x00 (0000ms, 0440ms total)
T0FD0 000:664 JLINK_WriteReg(R8, 0x00000000)  returns 0x00 (0000ms, 0440ms total)
T0FD0 000:664 JLINK_WriteReg(R9, 0x20000160)  returns 0x00 (0000ms, 0440ms total)
T0FD0 000:664 JLINK_WriteReg(R10, 0x00000000)  returns 0x00 (0000ms, 0440ms total)
T0FD0 000:664 JLINK_WriteReg(R11, 0x00000000)  returns 0x00 (0000ms, 0440ms total)
T0FD0 000:664 JLINK_WriteReg(R12, 0x00000000)  returns 0x00 (0000ms, 0440ms total)
T0FD0 000:664 JLINK_WriteReg(R13 (SP), 0x20001000)  returns 0x00 (0000ms, 0440ms total)
T0FD0 000:664 JLINK_WriteReg(R14, 0x20000001)  returns 0x00 (0000ms, 0440ms total)
T0FD0 000:664 JLINK_WriteReg(R15 (PC), 0x200000B6)  returns 0x00 (0000ms, 0440ms total)
T0FD0 000:664 JLINK_WriteReg(XPSR, 0x01000000)  returns 0x00 (0000ms, 0440ms total)
T0FD0 000:664 JLINK_WriteReg(MSP, 0x20001000)  returns 0x00 (0000ms, 0440ms total)
T0FD0 000:664 JLINK_WriteReg(PSP, 0x20001000)  returns 0x00 (0000ms, 0440ms total)
T0FD0 000:664 JLINK_WriteReg(CFBP, 0x00000000)  returns 0x00 (0000ms, 0440ms total)
T0FD0 000:664 JLINK_SetBPEx(Addr = 0x20000000, Type = 0xFFFFFFF2)  returns 0x00000005 (0000ms, 0440ms total)
T0FD0 000:664 JLINK_Go() -- CPU_ReadMem(4 bytes @ 0xE0001000) (0003ms, 0443ms total)
T0FD0 000:667 JLINK_IsHalted()  returns FALSE (0001ms, 0444ms total)
T0FD0 000:673 JLINK_IsHalted()  returns FALSE (0000ms, 0443ms total)
T0FD0 000:674 JLINK_IsHalted()  returns FALSE (0000ms, 0443ms total)
T0FD0 000:675 JLINK_IsHalted()  returns FALSE (0000ms, 0443ms total)
T0FD0 000:676 JLINK_IsHalted()  returns FALSE (0000ms, 0443ms total)
T0FD0 000:677 JLINK_IsHalted()  returns FALSE (0000ms, 0443ms total)
T0FD0 000:679 JLINK_IsHalted()  returns FALSE (0001ms, 0444ms total)
T0FD0 000:681 JLINK_IsHalted()  returns FALSE (0001ms, 0444ms total)
T0FD0 000:683 JLINK_IsHalted()  returns FALSE (0001ms, 0444ms total)
T0FD0 000:685 JLINK_IsHalted()  returns FALSE (0001ms, 0444ms total)
T0FD0 000:688 JLINK_IsHalted()  returns FALSE (0001ms, 0444ms total)
T0FD0 000:690 JLINK_IsHalted() -- CPU_ReadMem(2 bytes @ 0x20000000)  returns TRUE (0003ms, 0446ms total)
T0FD0 000:693 JLINK_ReadReg(R15 (PC))  returns 0x20000000 (0000ms, 0443ms total)
T0FD0 000:693 JLINK_ClrBPEx(BPHandle = 0x00000005)  returns 0x00 (0000ms, 0443ms total)
T0FD0 000:693 JLINK_ReadReg(R0)  returns 0x00000000 (0000ms, 0443ms total)
T0FD0 000:694 JLINK_WriteReg(R0, 0x00000001)  returns 0x00 (0000ms, 0443ms total)
T0FD0 000:694 JLINK_WriteReg(R1, 0x00000800)  returns 0x00 (0000ms, 0443ms total)
T0FD0 000:694 JLINK_WriteReg(R2, 0x000000FF)  returns 0x00 (0000ms, 0443ms total)
T0FD0 000:694 JLINK_WriteReg(R3, 0x00000000)  returns 0x00 (0000ms, 0443ms total)
T0FD0 000:694 JLINK_WriteReg(R4, 0x00000000)  returns 0x00 (0000ms, 0443ms total)
T0FD0 000:694 JLINK_WriteReg(R5, 0x00000000)  returns 0x00 (0000ms, 0443ms total)
T0FD0 000:694 JLINK_WriteReg(R6, 0x00000000)  returns 0x00 (0000ms, 0443ms total)
T0FD0 000:694 JLINK_WriteReg(R7, 0x00000000)  returns 0x00 (0000ms, 0443ms total)
T0FD0 000:694 JLINK_WriteReg(R8, 0x00000000)  returns 0x00 (0000ms, 0443ms total)
T0FD0 000:694 JLINK_WriteReg(R9, 0x20000160)  returns 0x00 (0000ms, 0443ms total)
T0FD0 000:694 JLINK_WriteReg(R10, 0x00000000)  returns 0x00 (0000ms, 0443ms total)
T0FD0 000:694 JLINK_WriteReg(R11, 0x00000000)  returns 0x00 (0000ms, 0443ms total)
T0FD0 000:694 JLINK_WriteReg(R12, 0x00000000)  returns 0x00 (0000ms, 0443ms total)
T0FD0 000:694 JLINK_WriteReg(R13 (SP), 0x20001000)  returns 0x00 (0000ms, 0443ms total)
T0FD0 000:694 JLINK_WriteReg(R14, 0x20000001)  returns 0x00 (0000ms, 0443ms total)
T0FD0 000:694 JLINK_WriteReg(R15 (PC), 0x2000006A)  returns 0x00 (0000ms, 0443ms total)
T0FD0 000:694 JLINK_WriteReg(XPSR, 0x01000000)  returns 0x00 (0000ms, 0443ms total)
T0FD0 000:694 JLINK_WriteReg(MSP, 0x20001000)  returns 0x00 (0000ms, 0443ms total)
T0FD0 000:694 JLINK_WriteReg(PSP, 0x20001000)  returns 0x00 (0000ms, 0443ms total)
T0FD0 000:694 JLINK_WriteReg(CFBP, 0x00000000)  returns 0x00 (0000ms, 0443ms total)
T0FD0 000:694 JLINK_SetBPEx(Addr = 0x20000000, Type = 0xFFFFFFF2)  returns 0x00000006 (0000ms, 0443ms total)
T0FD0 000:694 JLINK_Go() -- CPU_ReadMem(4 bytes @ 0xE0001000) (0003ms, 0446ms total)
T0FD0 000:697 JLINK_IsHalted() -- CPU_ReadMem(2 bytes @ 0x20000000)  returns TRUE (0003ms, 0449ms total)
T0FD0 000:700 JLINK_ReadReg(R15 (PC))  returns 0x20000000 (0000ms, 0446ms total)
T0FD0 000:700 JLINK_ClrBPEx(BPHandle = 0x00000006)  returns 0x00 (0001ms, 0447ms total)
T0FD0 000:701 JLINK_ReadReg(R0)  returns 0x00000000 (0000ms, 0447ms total)
T0FD0 000:755 JLINK_WriteMem(0x20000000, 0x0164 Bytes, ...) - Data: 00 BE 0A E0 0D 78 2D 06 68 40 08 24 40 00 00 D3 ... -- CPU_WriteMem(356 bytes @ 0x20000000)  returns 0x164 (0002ms, 0449ms total)
T0FD0 000:757 JLINK_WriteReg(R0, 0x08000000)  returns 0x00 (0000ms, 0449ms total)
T0FD0 000:757 JLINK_WriteReg(R1, 0x00B71B00)  returns 0x00 (0000ms, 0449ms total)
T0FD0 000:757 JLINK_WriteReg(R2, 0x00000002)  returns 0x00 (0000ms, 0449ms total)
T0FD0 000:757 JLINK_WriteReg(R3, 0x00000000)  returns 0x00 (0000ms, 0449ms total)
T0FD0 000:757 JLINK_WriteReg(R4, 0x00000000)  returns 0x00 (0000ms, 0449ms total)
T0FD0 000:757 JLINK_WriteReg(R5, 0x00000000)  returns 0x00 (0000ms, 0449ms total)
T0FD0 000:757 JLINK_WriteReg(R6, 0x00000000)  returns 0x00 (0000ms, 0449ms total)
T0FD0 000:757 JLINK_WriteReg(R7, 0x00000000)  returns 0x00 (0000ms, 0449ms total)
T0FD0 000:757 JLINK_WriteReg(R8, 0x00000000)  returns 0x00 (0000ms, 0449ms total)
T0FD0 000:757 JLINK_WriteReg(R9, 0x20000160)  returns 0x00 (0000ms, 0449ms total)
T0FD0 000:757 JLINK_WriteReg(R10, 0x00000000)  returns 0x00 (0000ms, 0449ms total)
T0FD0 000:757 JLINK_WriteReg(R11, 0x00000000)  returns 0x00 (0000ms, 0449ms total)
T0FD0 000:757 JLINK_WriteReg(R12, 0x00000000)  returns 0x00 (0000ms, 0449ms total)
T0FD0 000:757 JLINK_WriteReg(R13 (SP), 0x20001000)  returns 0x00 (0000ms, 0449ms total)
T0FD0 000:757 JLINK_WriteReg(R14, 0x20000001)  returns 0x00 (0000ms, 0449ms total)
T0FD0 000:757 JLINK_WriteReg(R15 (PC), 0x20000038)  returns 0x00 (0000ms, 0449ms total)
T0FD0 000:757 JLINK_WriteReg(XPSR, 0x01000000)  returns 0x00 (0000ms, 0449ms total)
T0FD0 000:757 JLINK_WriteReg(MSP, 0x20001000)  returns 0x00 (0000ms, 0449ms total)
T0FD0 000:757 JLINK_WriteReg(PSP, 0x20001000)  returns 0x00 (0000ms, 0449ms total)
T0FD0 000:757 JLINK_WriteReg(CFBP, 0x00000000)  returns 0x00 (0000ms, 0449ms total)
T0FD0 000:757 JLINK_SetBPEx(Addr = 0x20000000, Type = 0xFFFFFFF2) -- CPU_ReadMem(2 bytes @ 0x20000000)  returns 0x00000007 (0001ms, 0450ms total)
T0FD0 000:758 JLINK_Go() -- CPU_WriteMem(2 bytes @ 0x20000000) -- CPU_ReadMem(4 bytes @ 0xE0001000) (0004ms, 0454ms total)
T0FD0 000:762 JLINK_IsHalted() -- CPU_ReadMem(2 bytes @ 0x20000000)  returns TRUE (0003ms, 0457ms total)
T0FD0 000:765 JLINK_ReadReg(R15 (PC))  returns 0x20000000 (0000ms, 0454ms total)
T0FD0 000:765 JLINK_ClrBPEx(BPHandle = 0x00000007)  returns 0x00 (0000ms, 0454ms total)
T0FD0 000:765 JLINK_ReadReg(R0)  returns 0x00000000 (0000ms, 0454ms total)
T0FD0 000:765 JLINK_WriteMem(0x20000164, 0x0400 Bytes, ...) - Data: 90 07 00 20 DD 01 00 08 0D 06 00 08 05 06 00 08 ... -- CPU_WriteMem(1024 bytes @ 0x20000164)  returns 0x400 (0003ms, 0457ms total)
T0FD0 000:768 JLINK_WriteReg(R0, 0x08000000)  returns 0x00 (0000ms, 0457ms total)
T0FD0 000:768 JLINK_WriteReg(R1, 0x00000400)  returns 0x00 (0000ms, 0457ms total)
T0FD0 000:768 JLINK_WriteReg(R2, 0x20000164)  returns 0x00 (0000ms, 0457ms total)
T0FD0 000:768 JLINK_WriteReg(R3, 0x00000000)  returns 0x00 (0000ms, 0457ms total)
T0FD0 000:768 JLINK_WriteReg(R4, 0x00000000)  returns 0x00 (0000ms, 0457ms total)
T0FD0 000:768 JLINK_WriteReg(R5, 0x00000000)  returns 0x00 (0000ms, 0457ms total)
T0FD0 000:768 JLINK_WriteReg(R6, 0x00000000)  returns 0x00 (0000ms, 0457ms total)
T0FD0 000:768 JLINK_WriteReg(R7, 0x00000000)  returns 0x00 (0000ms, 0457ms total)
T0FD0 000:768 JLINK_WriteReg(R8, 0x00000000)  returns 0x00 (0000ms, 0457ms total)
T0FD0 000:768 JLINK_WriteReg(R9, 0x20000160)  returns 0x00 (0000ms, 0457ms total)
T0FD0 000:768 JLINK_WriteReg(R10, 0x00000000)  returns 0x00 (0000ms, 0457ms total)
T0FD0 000:768 JLINK_WriteReg(R11, 0x00000000)  returns 0x00 (0000ms, 0457ms total)
T0FD0 000:768 JLINK_WriteReg(R12, 0x00000000)  returns 0x00 (0000ms, 0457ms total)
T0FD0 000:768 JLINK_WriteReg(R13 (SP), 0x20001000)  returns 0x00 (0000ms, 0457ms total)
T0FD0 000:768 JLINK_WriteReg(R14, 0x20000001)  returns 0x00 (0000ms, 0457ms total)
T0FD0 000:768 JLINK_WriteReg(R15 (PC), 0x200000F4)  returns 0x00 (0000ms, 0457ms total)
T0FD0 000:768 JLINK_WriteReg(XPSR, 0x01000000)  returns 0x00 (0000ms, 0457ms total)
T0FD0 000:768 JLINK_WriteReg(MSP, 0x20001000)  returns 0x00 (0000ms, 0457ms total)
T0FD0 000:768 JLINK_WriteReg(PSP, 0x20001000)  returns 0x00 (0000ms, 0457ms total)
T0FD0 000:768 JLINK_WriteReg(CFBP, 0x00000000)  returns 0x00 (0000ms, 0457ms total)
T0FD0 000:768 JLINK_SetBPEx(Addr = 0x20000000, Type = 0xFFFFFFF2)  returns 0x00000008 (0000ms, 0457ms total)
T0FD0 000:768 JLINK_Go() -- CPU_ReadMem(4 bytes @ 0xE0001000) (0003ms, 0460ms total)
T0FD0 000:771 JLINK_IsHalted()  returns FALSE (0001ms, 0461ms total)
T0FD0 000:795 JLINK_IsHalted()  returns FALSE (0001ms, 0461ms total)
T0FD0 000:797 JLINK_IsHalted()  returns FALSE (0001ms, 0461ms total)
T0FD0 000:800 JLINK_IsHalted()  returns FALSE (0000ms, 0460ms total)
T0FD0 000:801 JLINK_IsHalted()  returns FALSE (0000ms, 0460ms total)
T0FD0 000:802 JLINK_IsHalted() -- CPU_ReadMem(2 bytes @ 0x20000000)  returns TRUE (0002ms, 0462ms total)
T0FD0 000:804 JLINK_ReadReg(R15 (PC))  returns 0x20000000 (0000ms, 0460ms total)
T0FD0 000:804 JLINK_ClrBPEx(BPHandle = 0x00000008)  returns 0x00 (0000ms, 0460ms total)
T0FD0 000:804 JLINK_ReadReg(R0)  returns 0x00000000 (0000ms, 0460ms total)
T0FD0 000:805 JLINK_WriteMem(0x20000164, 0x0400 Bytes, ...) - Data: 18 F8 05 00 90 47 20 6A 40 1C 20 62 28 1E A5 F1 ... -- CPU_WriteMem(1024 bytes @ 0x20000164)  returns 0x400 (0003ms, 0463ms total)
T0FD0 000:808 JLINK_WriteReg(R0, 0x08000400)  returns 0x00 (0000ms, 0463ms total)
T0FD0 000:808 JLINK_WriteReg(R1, 0x00000400)  returns 0x00 (0000ms, 0463ms total)
T0FD0 000:808 JLINK_WriteReg(R2, 0x20000164)  returns 0x00 (0000ms, 0463ms total)
T0FD0 000:808 JLINK_WriteReg(R3, 0x00000000)  returns 0x00 (0000ms, 0463ms total)
T0FD0 000:808 JLINK_WriteReg(R4, 0x00000000)  returns 0x00 (0000ms, 0463ms total)
T0FD0 000:808 JLINK_WriteReg(R5, 0x00000000)  returns 0x00 (0000ms, 0463ms total)
T0FD0 000:808 JLINK_WriteReg(R6, 0x00000000)  returns 0x00 (0000ms, 0463ms total)
T0FD0 000:808 JLINK_WriteReg(R7, 0x00000000)  returns 0x00 (0000ms, 0463ms total)
T0FD0 000:808 JLINK_WriteReg(R8, 0x00000000)  returns 0x00 (0000ms, 0463ms total)
T0FD0 000:808 JLINK_WriteReg(R9, 0x20000160)  returns 0x00 (0000ms, 0463ms total)
T0FD0 000:808 JLINK_WriteReg(R10, 0x00000000)  returns 0x00 (0000ms, 0463ms total)
T0FD0 000:808 JLINK_WriteReg(R11, 0x00000000)  returns 0x00 (0000ms, 0463ms total)
T0FD0 000:808 JLINK_WriteReg(R12, 0x00000000)  returns 0x00 (0000ms, 0463ms total)
T0FD0 000:808 JLINK_WriteReg(R13 (SP), 0x20001000)  returns 0x00 (0000ms, 0463ms total)
T0FD0 000:808 JLINK_WriteReg(R14, 0x20000001)  returns 0x00 (0000ms, 0463ms total)
T0FD0 000:808 JLINK_WriteReg(R15 (PC), 0x200000F4)  returns 0x00 (0000ms, 0463ms total)
T0FD0 000:808 JLINK_WriteReg(XPSR, 0x01000000)  returns 0x00 (0000ms, 0463ms total)
T0FD0 000:808 JLINK_WriteReg(MSP, 0x20001000)  returns 0x00 (0000ms, 0463ms total)
T0FD0 000:808 JLINK_WriteReg(PSP, 0x20001000)  returns 0x00 (0000ms, 0463ms total)
T0FD0 000:808 JLINK_WriteReg(CFBP, 0x00000000)  returns 0x00 (0000ms, 0463ms total)
T0FD0 000:808 JLINK_SetBPEx(Addr = 0x20000000, Type = 0xFFFFFFF2)  returns 0x00000009 (0000ms, 0463ms total)
T0FD0 000:808 JLINK_Go() -- CPU_ReadMem(4 bytes @ 0xE0001000) (0003ms, 0466ms total)
T0FD0 000:811 JLINK_IsHalted()  returns FALSE (0001ms, 0467ms total)
T0FD0 000:875 JLINK_IsHalted() -- CPU_ReadMem(2 bytes @ 0x20000000)  returns TRUE (0003ms, 0469ms total)
T0FD0 000:878 JLINK_ReadReg(R15 (PC))  returns 0x20000000 (0000ms, 0466ms total)
T0FD0 000:878 JLINK_ClrBPEx(BPHandle = 0x00000009)  returns 0x00 (0000ms, 0466ms total)
T0FD0 000:878 JLINK_ReadReg(R0)  returns 0x00000000 (0000ms, 0466ms total)
T0FD0 000:878 JLINK_WriteMem(0x20000164, 0x0400 Bytes, ...) - Data: 01 28 43 D1 23 48 00 68 40 F0 10 00 21 49 08 60 ... -- CPU_WriteMem(1024 bytes @ 0x20000164)  returns 0x400 (0002ms, 0468ms total)
T0FD0 000:880 JLINK_WriteReg(R0, 0x08000800)  returns 0x00 (0000ms, 0468ms total)
T0FD0 000:880 JLINK_WriteReg(R1, 0x00000400)  returns 0x00 (0000ms, 0468ms total)
T0FD0 000:880 JLINK_WriteReg(R2, 0x20000164)  returns 0x00 (0000ms, 0468ms total)
T0FD0 000:880 JLINK_WriteReg(R3, 0x00000000)  returns 0x00 (0000ms, 0468ms total)
T0FD0 000:880 JLINK_WriteReg(R4, 0x00000000)  returns 0x00 (0000ms, 0468ms total)
T0FD0 000:880 JLINK_WriteReg(R5, 0x00000000)  returns 0x00 (0000ms, 0468ms total)
T0FD0 000:880 JLINK_WriteReg(R6, 0x00000000)  returns 0x00 (0000ms, 0468ms total)
T0FD0 000:880 JLINK_WriteReg(R7, 0x00000000)  returns 0x00 (0000ms, 0468ms total)
T0FD0 000:880 JLINK_WriteReg(R8, 0x00000000)  returns 0x00 (0000ms, 0468ms total)
T0FD0 000:880 JLINK_WriteReg(R9, 0x20000160)  returns 0x00 (0000ms, 0468ms total)
T0FD0 000:880 JLINK_WriteReg(R10, 0x00000000)  returns 0x00 (0000ms, 0468ms total)
T0FD0 000:880 JLINK_WriteReg(R11, 0x00000000)  returns 0x00 (0000ms, 0468ms total)
T0FD0 000:880 JLINK_WriteReg(R12, 0x00000000)  returns 0x00 (0000ms, 0468ms total)
T0FD0 000:880 JLINK_WriteReg(R13 (SP), 0x20001000)  returns 0x00 (0000ms, 0468ms total)
T0FD0 000:880 JLINK_WriteReg(R14, 0x20000001)  returns 0x00 (0000ms, 0468ms total)
T0FD0 000:880 JLINK_WriteReg(R15 (PC), 0x200000F4)  returns 0x00 (0000ms, 0468ms total)
T0FD0 000:880 JLINK_WriteReg(XPSR, 0x01000000)  returns 0x00 (0000ms, 0468ms total)
T0FD0 000:880 JLINK_WriteReg(MSP, 0x20001000)  returns 0x00 (0000ms, 0468ms total)
T0FD0 000:880 JLINK_WriteReg(PSP, 0x20001000)  returns 0x00 (0000ms, 0468ms total)
T0FD0 000:880 JLINK_WriteReg(CFBP, 0x00000000)  returns 0x00 (0000ms, 0468ms total)
T0FD0 000:880 JLINK_SetBPEx(Addr = 0x20000000, Type = 0xFFFFFFF2)  returns 0x0000000A (0000ms, 0468ms total)
T0FD0 000:880 JLINK_Go() -- CPU_ReadMem(4 bytes @ 0xE0001000) (0003ms, 0471ms total)
T0FD0 000:883 JLINK_IsHalted()  returns FALSE (0001ms, 0472ms total)
T0FD0 000:885 JLINK_IsHalted()  returns FALSE (0000ms, 0471ms total)
T0FD0 000:886 JLINK_IsHalted()  returns FALSE (0000ms, 0471ms total)
T0FD0 000:887 JLINK_IsHalted()  returns FALSE (0000ms, 0471ms total)
T0FD0 000:888 JLINK_IsHalted()  returns FALSE (0000ms, 0471ms total)
T0FD0 000:889 JLINK_IsHalted()  returns FALSE (0000ms, 0471ms total)
T0FD0 000:890 JLINK_IsHalted()  returns FALSE (0000ms, 0471ms total)
T0FD0 000:891 JLINK_IsHalted()  returns FALSE (0000ms, 0471ms total)
T0FD0 000:892 JLINK_IsHalted()  returns FALSE (0000ms, 0471ms total)
T0FD0 000:893 JLINK_IsHalted()  returns FALSE (0000ms, 0471ms total)
T0FD0 000:894 JLINK_IsHalted()  returns FALSE (0000ms, 0471ms total)
T0FD0 000:895 JLINK_IsHalted()  returns FALSE (0000ms, 0471ms total)
T0FD0 000:896 JLINK_IsHalted()  returns FALSE (0000ms, 0471ms total)
T0FD0 000:897 JLINK_IsHalted()  returns FALSE (0000ms, 0471ms total)
T0FD0 000:898 JLINK_IsHalted()  returns FALSE (0000ms, 0471ms total)
T0FD0 000:899 JLINK_IsHalted()  returns FALSE (0000ms, 0471ms total)
T0FD0 000:901 JLINK_IsHalted()  returns FALSE (0001ms, 0472ms total)
T0FD0 000:903 JLINK_IsHalted()  returns FALSE (0001ms, 0472ms total)
T0FD0 000:905 JLINK_IsHalted()  returns FALSE (0001ms, 0472ms total)
T0FD0 000:907 JLINK_IsHalted()  returns FALSE (0001ms, 0472ms total)
T0FD0 000:909 JLINK_IsHalted()  returns FALSE (0001ms, 0472ms total)
T0FD0 000:911 JLINK_IsHalted()  returns FALSE (0001ms, 0472ms total)
T0FD0 000:913 JLINK_IsHalted()  returns FALSE (0001ms, 0472ms total)
T0FD0 000:915 JLINK_IsHalted() -- CPU_ReadMem(2 bytes @ 0x20000000)  returns TRUE (0003ms, 0474ms total)
T0FD0 000:918 JLINK_ReadReg(R15 (PC))  returns 0x20000000 (0000ms, 0471ms total)
T0FD0 000:918 JLINK_ClrBPEx(BPHandle = 0x0000000A)  returns 0x00 (0000ms, 0471ms total)
T0FD0 000:918 JLINK_ReadReg(R0)  returns 0x00000000 (0000ms, 0471ms total)
T0FD0 000:918 JLINK_WriteMem(0x20000164, 0x0400 Bytes, ...) - Data: 4B FE 0A 48 00 68 0A 49 B0 FB F1 F0 09 49 08 70 ... -- CPU_WriteMem(1024 bytes @ 0x20000164)  returns 0x400 (0003ms, 0474ms total)
T0FD0 000:921 JLINK_WriteReg(R0, 0x08000C00)  returns 0x00 (0000ms, 0474ms total)
T0FD0 000:921 JLINK_WriteReg(R1, 0x00000300)  returns 0x00 (0000ms, 0474ms total)
T0FD0 000:921 JLINK_WriteReg(R2, 0x20000164)  returns 0x00 (0000ms, 0474ms total)
T0FD0 000:921 JLINK_WriteReg(R3, 0x00000000)  returns 0x00 (0000ms, 0474ms total)
T0FD0 000:921 JLINK_WriteReg(R4, 0x00000000)  returns 0x00 (0000ms, 0474ms total)
T0FD0 000:921 JLINK_WriteReg(R5, 0x00000000)  returns 0x00 (0000ms, 0474ms total)
T0FD0 000:921 JLINK_WriteReg(R6, 0x00000000)  returns 0x00 (0000ms, 0474ms total)
T0FD0 000:921 JLINK_WriteReg(R7, 0x00000000)  returns 0x00 (0000ms, 0474ms total)
T0FD0 000:921 JLINK_WriteReg(R8, 0x00000000)  returns 0x00 (0000ms, 0474ms total)
T0FD0 000:921 JLINK_WriteReg(R9, 0x20000160)  returns 0x00 (0000ms, 0474ms total)
T0FD0 000:921 JLINK_WriteReg(R10, 0x00000000)  returns 0x00 (0000ms, 0474ms total)
T0FD0 000:921 JLINK_WriteReg(R11, 0x00000000)  returns 0x00 (0000ms, 0474ms total)
T0FD0 000:921 JLINK_WriteReg(R12, 0x00000000)  returns 0x00 (0000ms, 0474ms total)
T0FD0 000:921 JLINK_WriteReg(R13 (SP), 0x20001000)  returns 0x00 (0000ms, 0474ms total)
T0FD0 000:921 JLINK_WriteReg(R14, 0x20000001)  returns 0x00 (0000ms, 0474ms total)
T0FD0 000:921 JLINK_WriteReg(R15 (PC), 0x200000F4)  returns 0x00 (0000ms, 0474ms total)
T0FD0 000:921 JLINK_WriteReg(XPSR, 0x01000000)  returns 0x00 (0000ms, 0474ms total)
T0FD0 000:921 JLINK_WriteReg(MSP, 0x20001000)  returns 0x00 (0000ms, 0474ms total)
T0FD0 000:921 JLINK_WriteReg(PSP, 0x20001000)  returns 0x00 (0000ms, 0474ms total)
T0FD0 000:921 JLINK_WriteReg(CFBP, 0x00000000)  returns 0x00 (0000ms, 0474ms total)
T0FD0 000:921 JLINK_SetBPEx(Addr = 0x20000000, Type = 0xFFFFFFF2)  returns 0x0000000B (0000ms, 0474ms total)
T0FD0 000:921 JLINK_Go() -- CPU_ReadMem(4 bytes @ 0xE0001000) (0003ms, 0477ms total)
T0FD0 000:924 JLINK_IsHalted()  returns FALSE (0001ms, 0478ms total)
T0FD0 000:926 JLINK_IsHalted()  returns FALSE (0000ms, 0477ms total)
T0FD0 000:927 JLINK_IsHalted()  returns FALSE (0000ms, 0477ms total)
T0FD0 000:931 JLINK_IsHalted()  returns FALSE (0001ms, 0478ms total)
T0FD0 000:933 JLINK_IsHalted()  returns FALSE (0000ms, 0477ms total)
T0FD0 000:934 JLINK_IsHalted()  returns FALSE (0001ms, 0478ms total)
T0FD0 000:936 JLINK_IsHalted()  returns FALSE (0000ms, 0477ms total)
T0FD0 000:937 JLINK_IsHalted()  returns FALSE (0000ms, 0477ms total)
T0FD0 000:938 JLINK_IsHalted()  returns FALSE (0000ms, 0477ms total)
T0FD0 000:939 JLINK_IsHalted()  returns FALSE (0000ms, 0477ms total)
T0FD0 000:940 JLINK_IsHalted()  returns FALSE (0000ms, 0477ms total)
T0FD0 000:941 JLINK_IsHalted()  returns FALSE (0000ms, 0477ms total)
T0FD0 000:942 JLINK_IsHalted()  returns FALSE (0000ms, 0477ms total)
T0FD0 000:943 JLINK_IsHalted()  returns FALSE (0000ms, 0477ms total)
T0FD0 000:958 JLINK_IsHalted() -- CPU_ReadMem(2 bytes @ 0x20000000)  returns TRUE (0003ms, 0480ms total)
T0FD0 000:961 JLINK_ReadReg(R15 (PC))  returns 0x20000000 (0000ms, 0477ms total)
T0FD0 000:961 JLINK_ClrBPEx(BPHandle = 0x0000000B)  returns 0x00 (0000ms, 0477ms total)
T0FD0 000:961 JLINK_ReadReg(R0)  returns 0x00000000 (0000ms, 0477ms total)
T0FD0 000:961 JLINK_WriteReg(R0, 0x00000002)  returns 0x00 (0000ms, 0477ms total)
T0FD0 000:961 JLINK_WriteReg(R1, 0x00000300)  returns 0x00 (0000ms, 0477ms total)
T0FD0 000:961 JLINK_WriteReg(R2, 0x20000164)  returns 0x00 (0000ms, 0477ms total)
T0FD0 000:961 JLINK_WriteReg(R3, 0x00000000)  returns 0x00 (0000ms, 0477ms total)
T0FD0 000:961 JLINK_WriteReg(R4, 0x00000000)  returns 0x00 (0000ms, 0477ms total)
T0FD0 000:961 JLINK_WriteReg(R5, 0x00000000)  returns 0x00 (0000ms, 0477ms total)
T0FD0 000:961 JLINK_WriteReg(R6, 0x00000000)  returns 0x00 (0000ms, 0477ms total)
T0FD0 000:961 JLINK_WriteReg(R7, 0x00000000)  returns 0x00 (0000ms, 0477ms total)
T0FD0 000:961 JLINK_WriteReg(R8, 0x00000000)  returns 0x00 (0000ms, 0477ms total)
T0FD0 000:961 JLINK_WriteReg(R9, 0x20000160)  returns 0x00 (0000ms, 0477ms total)
T0FD0 000:961 JLINK_WriteReg(R10, 0x00000000)  returns 0x00 (0000ms, 0477ms total)
T0FD0 000:961 JLINK_WriteReg(R11, 0x00000000)  returns 0x00 (0000ms, 0477ms total)
T0FD0 000:961 JLINK_WriteReg(R12, 0x00000000)  returns 0x00 (0000ms, 0477ms total)
T0FD0 000:961 JLINK_WriteReg(R13 (SP), 0x20001000)  returns 0x00 (0000ms, 0477ms total)
T0FD0 000:961 JLINK_WriteReg(R14, 0x20000001)  returns 0x00 (0000ms, 0477ms total)
T0FD0 000:961 JLINK_WriteReg(R15 (PC), 0x2000006A)  returns 0x00 (0000ms, 0477ms total)
T0FD0 000:961 JLINK_WriteReg(XPSR, 0x01000000)  returns 0x00 (0000ms, 0477ms total)
T0FD0 000:961 JLINK_WriteReg(MSP, 0x20001000)  returns 0x00 (0000ms, 0477ms total)
T0FD0 000:961 JLINK_WriteReg(PSP, 0x20001000)  returns 0x00 (0000ms, 0477ms total)
T0FD0 000:961 JLINK_WriteReg(CFBP, 0x00000000)  returns 0x00 (0000ms, 0477ms total)
T0FD0 000:961 JLINK_SetBPEx(Addr = 0x20000000, Type = 0xFFFFFFF2)  returns 0x0000000C (0000ms, 0477ms total)
T0FD0 000:961 JLINK_Go() -- CPU_ReadMem(4 bytes @ 0xE0001000) (0003ms, 0480ms total)
T0FD0 000:964 JLINK_IsHalted() -- CPU_ReadMem(2 bytes @ 0x20000000)  returns TRUE (0003ms, 0483ms total)
T0FD0 000:967 JLINK_ReadReg(R15 (PC))  returns 0x20000000 (0000ms, 0480ms total)
T0FD0 000:967 JLINK_ClrBPEx(BPHandle = 0x0000000C)  returns 0x00 (0000ms, 0480ms total)
T0FD0 000:967 JLINK_ReadReg(R0)  returns 0x00000000 (0000ms, 0480ms total)
T0FD0 001:021 JLINK_WriteMem(0x20000000, 0x0164 Bytes, ...) - Data: 00 BE 0A E0 0D 78 2D 06 68 40 08 24 40 00 00 D3 ... -- CPU_WriteMem(356 bytes @ 0x20000000)  returns 0x164 (0002ms, 0482ms total)
T0FD0 001:023 JLINK_WriteReg(R0, 0x08000000)  returns 0x00 (0000ms, 0482ms total)
T0FD0 001:023 JLINK_WriteReg(R1, 0x00B71B00)  returns 0x00 (0000ms, 0482ms total)
T0FD0 001:023 JLINK_WriteReg(R2, 0x00000003)  returns 0x00 (0000ms, 0482ms total)
T0FD0 001:023 JLINK_WriteReg(R3, 0x00000000)  returns 0x00 (0000ms, 0482ms total)
T0FD0 001:023 JLINK_WriteReg(R4, 0x00000000)  returns 0x00 (0000ms, 0482ms total)
T0FD0 001:023 JLINK_WriteReg(R5, 0x00000000)  returns 0x00 (0000ms, 0482ms total)
T0FD0 001:023 JLINK_WriteReg(R6, 0x00000000)  returns 0x00 (0000ms, 0482ms total)
T0FD0 001:023 JLINK_WriteReg(R7, 0x00000000)  returns 0x00 (0000ms, 0482ms total)
T0FD0 001:023 JLINK_WriteReg(R8, 0x00000000)  returns 0x00 (0000ms, 0482ms total)
T0FD0 001:023 JLINK_WriteReg(R9, 0x20000160)  returns 0x00 (0000ms, 0482ms total)
T0FD0 001:023 JLINK_WriteReg(R10, 0x00000000)  returns 0x00 (0000ms, 0482ms total)
T0FD0 001:023 JLINK_WriteReg(R11, 0x00000000)  returns 0x00 (0000ms, 0482ms total)
T0FD0 001:023 JLINK_WriteReg(R12, 0x00000000)  returns 0x00 (0000ms, 0482ms total)
T0FD0 001:023 JLINK_WriteReg(R13 (SP), 0x20001000)  returns 0x00 (0000ms, 0482ms total)
T0FD0 001:023 JLINK_WriteReg(R14, 0x20000001)  returns 0x00 (0000ms, 0482ms total)
T0FD0 001:023 JLINK_WriteReg(R15 (PC), 0x20000038)  returns 0x00 (0000ms, 0482ms total)
T0FD0 001:023 JLINK_WriteReg(XPSR, 0x01000000)  returns 0x00 (0000ms, 0482ms total)
T0FD0 001:023 JLINK_WriteReg(MSP, 0x20001000)  returns 0x00 (0000ms, 0482ms total)
T0FD0 001:023 JLINK_WriteReg(PSP, 0x20001000)  returns 0x00 (0000ms, 0482ms total)
T0FD0 001:023 JLINK_WriteReg(CFBP, 0x00000000)  returns 0x00 (0000ms, 0482ms total)
T0FD0 001:023 JLINK_SetBPEx(Addr = 0x20000000, Type = 0xFFFFFFF2) -- CPU_ReadMem(2 bytes @ 0x20000000)  returns 0x0000000D (0001ms, 0483ms total)
T0FD0 001:024 JLINK_Go() -- CPU_WriteMem(2 bytes @ 0x20000000) -- CPU_ReadMem(4 bytes @ 0xE0001000) (0003ms, 0486ms total)
T0FD0 001:028 JLINK_IsHalted() -- CPU_ReadMem(2 bytes @ 0x20000000)  returns TRUE (0003ms, 0490ms total)
T0FD0 001:031 JLINK_ReadReg(R15 (PC))  returns 0x20000000 (0000ms, 0487ms total)
T0FD0 001:031 JLINK_ClrBPEx(BPHandle = 0x0000000D)  returns 0x00 (0000ms, 0487ms total)
T0FD0 001:031 JLINK_ReadReg(R0)  returns 0x00000000 (0000ms, 0487ms total)
T0FD0 001:031 JLINK_WriteReg(R0, 0xFFFFFFFF)  returns 0x00 (0000ms, 0487ms total)
T0FD0 001:031 JLINK_WriteReg(R1, 0x08000000)  returns 0x00 (0000ms, 0487ms total)
T0FD0 001:031 JLINK_WriteReg(R2, 0x00000F00)  returns 0x00 (0000ms, 0487ms total)
T0FD0 001:031 JLINK_WriteReg(R3, 0x04C11DB7)  returns 0x00 (0000ms, 0487ms total)
T0FD0 001:031 JLINK_WriteReg(R4, 0x00000000)  returns 0x00 (0000ms, 0487ms total)
T0FD0 001:031 JLINK_WriteReg(R5, 0x00000000)  returns 0x00 (0000ms, 0487ms total)
T0FD0 001:031 JLINK_WriteReg(R6, 0x00000000)  returns 0x00 (0000ms, 0487ms total)
T0FD0 001:031 JLINK_WriteReg(R7, 0x00000000)  returns 0x00 (0000ms, 0487ms total)
T0FD0 001:031 JLINK_WriteReg(R8, 0x00000000)  returns 0x00 (0000ms, 0487ms total)
T0FD0 001:031 JLINK_WriteReg(R9, 0x20000160)  returns 0x00 (0000ms, 0487ms total)
T0FD0 001:031 JLINK_WriteReg(R10, 0x00000000)  returns 0x00 (0000ms, 0487ms total)
T0FD0 001:031 JLINK_WriteReg(R11, 0x00000000)  returns 0x00 (0000ms, 0487ms total)
T0FD0 001:031 JLINK_WriteReg(R12, 0x00000000)  returns 0x00 (0000ms, 0487ms total)
T0FD0 001:031 JLINK_WriteReg(R13 (SP), 0x20001000)  returns 0x00 (0000ms, 0487ms total)
T0FD0 001:031 JLINK_WriteReg(R14, 0x20000001)  returns 0x00 (0000ms, 0487ms total)
T0FD0 001:031 JLINK_WriteReg(R15 (PC), 0x20000002)  returns 0x00 (0000ms, 0487ms total)
T0FD0 001:031 JLINK_WriteReg(XPSR, 0x01000000)  returns 0x00 (0000ms, 0487ms total)
T0FD0 001:031 JLINK_WriteReg(MSP, 0x20001000)  returns 0x00 (0000ms, 0487ms total)
T0FD0 001:031 JLINK_WriteReg(PSP, 0x20001000)  returns 0x00 (0000ms, 0487ms total)
T0FD0 001:031 JLINK_WriteReg(CFBP, 0x00000000)  returns 0x00 (0000ms, 0487ms total)
T0FD0 001:031 JLINK_SetBPEx(Addr = 0x20000000, Type = 0xFFFFFFF2)  returns 0x0000000E (0000ms, 0487ms total)
T0FD0 001:031 JLINK_Go() -- CPU_ReadMem(4 bytes @ 0xE0001000) (0003ms, 0490ms total)
T0FD0 001:034 JLINK_IsHalted()  returns FALSE (0001ms, 0491ms total)
T0FD0 001:041 JLINK_IsHalted()  returns FALSE (0001ms, 0491ms total)
T0FD0 001:043 JLINK_IsHalted()  returns FALSE (0001ms, 0491ms total)
T0FD0 001:045 JLINK_IsHalted()  returns FALSE (0001ms, 0491ms total)
T0FD0 001:047 JLINK_IsHalted()  returns FALSE (0001ms, 0491ms total)
T0FD0 001:049 JLINK_IsHalted()  returns FALSE (0001ms, 0491ms total)
T0FD0 001:051 JLINK_IsHalted()  returns FALSE (0001ms, 0491ms total)
T0FD0 001:072 JLINK_IsHalted()  returns FALSE (0000ms, 0490ms total)
T0FD0 001:073 JLINK_IsHalted()  returns FALSE (0002ms, 0492ms total)
T0FD0 001:076 JLINK_IsHalted() -- CPU_ReadMem(2 bytes @ 0x20000000)  returns TRUE (0003ms, 0493ms total)
T0FD0 001:079 JLINK_ReadReg(R15 (PC))  returns 0x20000000 (0000ms, 0490ms total)
T0FD0 001:079 JLINK_ClrBPEx(BPHandle = 0x0000000E)  returns 0x00 (0000ms, 0490ms total)
T0FD0 001:079 JLINK_ReadReg(R0)  returns 0xBCA820FC (0000ms, 0490ms total)
T0FD0 001:079 JLINK_WriteReg(R0, 0x00000003)  returns 0x00 (0000ms, 0490ms total)
T0FD0 001:079 JLINK_WriteReg(R1, 0x08000000)  returns 0x00 (0000ms, 0490ms total)
T0FD0 001:079 JLINK_WriteReg(R2, 0x00000F00)  returns 0x00 (0000ms, 0490ms total)
T0FD0 001:079 JLINK_WriteReg(R3, 0x04C11DB7)  returns 0x00 (0000ms, 0490ms total)
T0FD0 001:079 JLINK_WriteReg(R4, 0x00000000)  returns 0x00 (0000ms, 0490ms total)
T0FD0 001:079 JLINK_WriteReg(R5, 0x00000000)  returns 0x00 (0000ms, 0490ms total)
T0FD0 001:079 JLINK_WriteReg(R6, 0x00000000)  returns 0x00 (0000ms, 0490ms total)
T0FD0 001:079 JLINK_WriteReg(R7, 0x00000000)  returns 0x00 (0000ms, 0490ms total)
T0FD0 001:079 JLINK_WriteReg(R8, 0x00000000)  returns 0x00 (0000ms, 0490ms total)
T0FD0 001:079 JLINK_WriteReg(R9, 0x20000160)  returns 0x00 (0000ms, 0490ms total)
T0FD0 001:079 JLINK_WriteReg(R10, 0x00000000)  returns 0x00 (0000ms, 0490ms total)
T0FD0 001:079 JLINK_WriteReg(R11, 0x00000000)  returns 0x00 (0000ms, 0490ms total)
T0FD0 001:079 JLINK_WriteReg(R12, 0x00000000)  returns 0x00 (0000ms, 0490ms total)
T0FD0 001:079 JLINK_WriteReg(R13 (SP), 0x20001000)  returns 0x00 (0000ms, 0490ms total)
T0FD0 001:079 JLINK_WriteReg(R14, 0x20000001)  returns 0x00 (0000ms, 0490ms total)
T0FD0 001:079 JLINK_WriteReg(R15 (PC), 0x2000006A)  returns 0x00 (0000ms, 0490ms total)
T0FD0 001:079 JLINK_WriteReg(XPSR, 0x01000000)  returns 0x00 (0000ms, 0490ms total)
T0FD0 001:079 JLINK_WriteReg(MSP, 0x20001000)  returns 0x00 (0000ms, 0490ms total)
T0FD0 001:079 JLINK_WriteReg(PSP, 0x20001000)  returns 0x00 (0000ms, 0490ms total)
T0FD0 001:079 JLINK_WriteReg(CFBP, 0x00000000)  returns 0x00 (0000ms, 0490ms total)
T0FD0 001:079 JLINK_SetBPEx(Addr = 0x20000000, Type = 0xFFFFFFF2)  returns 0x0000000F (0000ms, 0490ms total)
T0FD0 001:079 JLINK_Go() -- CPU_ReadMem(4 bytes @ 0xE0001000) (0004ms, 0494ms total)
T0FD0 001:083 JLINK_IsHalted() -- CPU_ReadMem(2 bytes @ 0x20000000)  returns TRUE (0003ms, 0497ms total)
T0FD0 001:086 JLINK_ReadReg(R15 (PC))  returns 0x20000000 (0000ms, 0494ms total)
T0FD0 001:086 JLINK_ClrBPEx(BPHandle = 0x0000000F)  returns 0x00 (0000ms, 0494ms total)
T0FD0 001:086 JLINK_ReadReg(R0)  returns 0x00000000 (0000ms, 0494ms total)
T0FD0 001:143 JLINK_WriteMem(0x20000000, 0x0002 Bytes, ...) - Data: FE E7 -- CPU_WriteMem(2 bytes @ 0x20000000)  returns 0x02 (0001ms, 0495ms total)
